
**** 05/02/20 14:25:54 ******* PSpice Lite (March 2016) ******* ID# 10813 ****

 ** Profile: "SCHEMATIC1-TestSimu"  [ D:\geoff\Documents\OneDrive - he2b.be\Ecole 2019 - 2020\Q2\Bureau_Etude\1803 - Banc d_essais Mo


 ****     CIRCUIT DESCRIPTION


******************************************************************************




** Creating circuit file "TestSimu.cir" 
** WARNING: THIS AUTOMATICALLY GENERATED FILE MAY BE OVERWRITTEN BY SUBSEQUENT SIMULATIONS

*Libraries: 
* Profile Libraries :
* Local Libraries :
.LIB "D:/geoff/Documents/OneDrive - he2b.be/Ecole 2019 - 2020/Q2/Bureau_Etude/1803 - Banc d_essais Moteur/BANC_ESSAI_ELECTRONIQUE/D"
+ "atasheets_Composants/Mesures_Jauge_Contrainte/Spice model/ad623.lib" 
* From [PSPICE NETLIST] section of D:\SPB_DATA\cdssetup\OrCAD_PSpice\17.2.0\PSpice.ini file:
.lib "nomd.lib" 

*Analysis directives: 
.TRAN  0 10s 0 
.OPTIONS ADVCONV
.PROBE64 V(alias(*)) I(alias(*)) W(alias(*)) D(alias(*)) NOISE(alias(*)) 
.INC "..\SCHEMATIC1.net" 



**** INCLUDING SCHEMATIC1.net ****
* source ESSAISSIMUPSPICE
X_U4         N14788 0 N14808 N147723 N16057 0 N16175 N16389 AD623 
R_R10         N14702 N16064  1000k TC=0,0 
R_R11         N14808 N147723  1k TC=0,0 
X_R14         0 N14788 N14702 POT PARAMS: SET=0.5 VALUE=1K
V_V2         N16057 0 5Vdc
V_V3         N16064 0 12
R_R19         0 N16175  1k TC=0,0 
V_V4         N16389 0 1.65

**** RESUMING TestSimu.cir ****
.END

**** 05/02/20 14:25:54 ******* PSpice Lite (March 2016) ******* ID# 10813 ****

 ** Profile: "SCHEMATIC1-TestSimu"  [ D:\geoff\Documents\OneDrive - he2b.be\Ecole 2019 - 2020\Q2\Bureau_Etude\1803 - Banc d_essais Mo


 ****     Diode MODEL PARAMETERS


******************************************************************************




               X_U4.DX         X_U4.DNOI1      X_U4.DNOI2      
          IS  100.000000E-18   10.000000E-15   10.000000E-15 
          KF                  600.000000E-12   10.000000E-09 
          AF                    1.5                          


**** 05/02/20 14:25:54 ******* PSpice Lite (March 2016) ******* ID# 10813 ****

 ** Profile: "SCHEMATIC1-TestSimu"  [ D:\geoff\Documents\OneDrive - he2b.be\Ecole 2019 - 2020\Q2\Bureau_Etude\1803 - Banc d_essais Mo


 ****     BJT MODEL PARAMETERS


******************************************************************************




               X_U4.QPI        X_U4.QNOX       X_U4.QPOX       X_U4.QPI1       
               PNP             NPN             PNP             PNP             
       LEVEL    1               1               1               1            
          IS  100.000000E-18    6.000000E-15    6.000000E-15  100.000000E-18 
          BF  100             100             112             100            
          NF    1               1               1               1            
         VAF  100             120             120             100            
          BR    1               1               1               1            
          NR    1               1               1               1            
         ISS    0               0               0               0            
          RE    0               0               0               0            
          RC    0              50              50               0            
         CJE    0               0               0               0            
         VJE     .75             .75             .75             .75         
         CJC    0               0               0               0            
         VJC     .75             .75             .75             .75         
         MJC     .33             .33             .33             .33         
        XCJC    1               1               1               1            
         CJS    0               0               0               0            
         VJS     .75             .75             .75             .75         
          KF    0               0               0               0            
          AF    1               1               1               1            
          CN    2.2             2.42            2.2             2.2          
           D     .52             .87             .52             .52         


               X_U4.QPI2       
               PNP             
       LEVEL    1            
          IS  100.000000E-18 
          BF  100            
          NF    1            
         VAF   99.3          
          BR    1            
          NR    1            
         ISS    0            
          RE    0            
          RC    0            
         CJE    0            
         VJE     .75         
         CJC    0            
         VJC     .75         
         MJC     .33         
        XCJC    1            
         CJS    0            
         VJS     .75         
          KF    0            
          AF    1            
          CN    2.2          
           D     .52         


**** 05/02/20 14:25:54 ******* PSpice Lite (March 2016) ******* ID# 10813 ****

 ** Profile: "SCHEMATIC1-TestSimu"  [ D:\geoff\Documents\OneDrive - he2b.be\Ecole 2019 - 2020\Q2\Bureau_Etude\1803 - Banc d_essais Mo


 ****     INITIAL TRANSIENT SOLUTION       TEMPERATURE =   27.000 DEG C


******************************************************************************



 NODE   VOLTAGE     NODE   VOLTAGE     NODE   VOLTAGE     NODE   VOLTAGE


(N14702)     .0120 (N14788)     .0060 (N14808)     .6204 (N16057)    5.0000     

(N16064)   12.0000 (N16175)    2.2565 (N16389)    1.6500 (N147723)     .6144    

(X_U4.97)    0.0000                   (X_U4.98)    2.5000                       

(X_U4.A3)     .6198                   (X_U4.A4)     .6138                       

(X_U4.B3)    1.2858                   (X_U4.B4)     .0419                       

(X_U4.B5)    1.9223                   (X_U4.B6)     .0423                       

(X_U4.b7)    1.9221                   (X_U4.B8)    1.9387                       

(X_U4.C3)    2.5000                   (X_U4.C4)     .0421                       

(X_U4.C5)     .6204                   (X_U4.C6)     .0421                       

(X_U4.C8)    1.2572                   (X_U4.D3)    2.5000                       

(X_U4.D4)     .0421                   (X_U4.D5)     .6144                       

(X_U4.D6)     .0421                   (X_U4.D8)    1.2512                       

(X_U4.103)     .9180                  (X_U4.104)     .3118                      

(X_U4.201)    1.2852                  (X_U4.202)    1.2854                      

(X_U4.B20)    2.4998                  (X_U4.B21)    2.4998                      

(X_U4.B30)    2.4838                  (X_U4.B31)    3.0838                      

(X_U4.B32)    1.8838                  (X_U4.B41)    4.4035                      

(X_U4.B42)    4.2419                  (X_U4.B43)    4.9311                      

(X_U4.B44)     .4349                  (X_U4.B46) 3.708E-06                      

(X_U4.B47)     .5965                  (X_U4.B51)    3.1400                      

(X_U4.B52)    2.5000                  (X_U4.B53)    2.4994                      

(X_U4.C20)    2.5000                  (X_U4.C30)    2.5001                      

(X_U4.C31)    3.1001                  (X_U4.C32)    1.9001                      

(X_U4.C41)    4.4035                  (X_U4.C42)    4.4042                      

(X_U4.C43)    4.9982                  (X_U4.C44)     .5972                      

(X_U4.C46)     .0018                  (X_U4.C47)     .5965                      

(X_U4.C51)    3.1400                  (X_U4.C52)    2.5000                      

(X_U4.C53)    2.4994                  (X_U4.D20)    2.5000                      

(X_U4.D30)    2.5013                  (X_U4.D31)    3.1013                      

(X_U4.D32)    1.9013                  (X_U4.D41)    4.4035                      

(X_U4.D42)    4.4099                  (X_U4.D43)    4.9986                      

(X_U4.D44)     .6029                  (X_U4.D46)     .0022                      

(X_U4.D47)     .5965                  (X_U4.D51)    3.1400                      

(X_U4.D52)    2.5000                  (X_U4.D53)    2.4994                  




    VOLTAGE SOURCE CURRENTS
    NAME         CURRENT

    V_V2        -2.541E-03
    V_V3        -1.199E-05
    V_V4        -7.295E-06
    X_U4.VN1B   -5.578E-04
    X_U4.VMEASB   5.578E-04
    X_U4.V1B     1.916E-12
    X_U4.V2B     1.884E-12
    X_U4.VBI01B  -2.001E-05
    X_U4.VBIO2B  -1.204E-09
    X_U4.VN1C   -5.578E-04
    X_U4.VMEASC   5.578E-04
    X_U4.V1C     1.900E-12
    X_U4.V2C     1.900E-12
    X_U4.VBI01C  -5.061E-07
    X_U4.VBIO2C  -5.956E-07
    X_U4.VN1D   -5.578E-04
    X_U4.VMEASD   5.578E-04
    X_U4.V1D     1.899E-12
    X_U4.V2D     1.901E-12
    X_U4.VBI01D  -4.103E-07
    X_U4.VBIO2D  -7.328E-07

    TOTAL POWER DISSIPATION   1.39E-02  WATTS



          JOB CONCLUDED

**** 05/02/20 14:25:54 ******* PSpice Lite (March 2016) ******* ID# 10813 ****

 ** Profile: "SCHEMATIC1-TestSimu"  [ D:\geoff\Documents\OneDrive - he2b.be\Ecole 2019 - 2020\Q2\Bureau_Etude\1803 - Banc d_essais Mo


 ****     JOB STATISTICS SUMMARY


******************************************************************************



  Total job time (using Solver 1)   =         .14
